
**** 03/02/20 16:18:43 ******* PSpice Lite (March 2016) ******* ID# 10813 ****

 ** Profile: "SCHEMATIC1-Sim Lab 3"  [ H:\ElectronicsLab\project\Lab 3\lab 3-pspicefiles\schematic1\sim lab 3.sim ] 


 ****     CIRCUIT DESCRIPTION


******************************************************************************




** Creating circuit file "Sim Lab 3.cir" 
** WARNING: THIS AUTOMATICALLY GENERATED FILE MAY BE OVERWRITTEN BY SUBSEQUENT SIMULATIONS

*Libraries: 
* Profile Libraries :
* Local Libraries :
* From [PSPICE NETLIST] section of C:\cdssetup\OrCAD_PSpice\17.2.0\PSpice.ini file:
.lib "nomd.lib" 

*Analysis directives: 
.TRAN  0 3m 0 0.01m 
.OPTIONS ADVCONV
.PROBE64 V(alias(*)) I(alias(*)) W(alias(*)) D(alias(*)) NOISE(alias(*)) 
.INC "..\SCHEMATIC1.net" 



**** INCLUDING SCHEMATIC1.net ****
* source LAB 3
X_M4         N15724 N15354 N15693 2N7000/FAI
V_V1         N15724 0 6Vdc
V_V2         N15354 0 6Vdc
R_R1         N15693 0  1k TC=0,0 

**** RESUMING "Sim Lab 3.cir" ****
.END

**** 03/02/20 16:18:43 ******* PSpice Lite (March 2016) ******* ID# 10813 ****

 ** Profile: "SCHEMATIC1-Sim Lab 3"  [ H:\ElectronicsLab\project\Lab 3\lab 3-pspicefiles\schematic1\sim lab 3.sim ] 


 ****     Diode MODEL PARAMETERS


******************************************************************************




               X_M4.DDS        X_M4.DBODY      X_M4.DGD        
          IS   10.000000E-15  140.000000E-15   10.000000E-15 
          BV   60.0864                                       
          RS                     .04                         
          TT                  100.000000E-09                 
         CJO   23.000000E-12                   85.000000E-12 
          VJ     .8                              .12         
           M     .36                             .53         


**** 03/02/20 16:18:43 ******* PSpice Lite (March 2016) ******* ID# 10813 ****

 ** Profile: "SCHEMATIC1-Sim Lab 3"  [ H:\ElectronicsLab\project\Lab 3\lab 3-pspicefiles\schematic1\sim lab 3.sim ] 


 ****     MOSFET MODEL PARAMETERS


******************************************************************************




               X_M4.DMOS       X_M4.INTER      
               NMOS            NMOS            
       LEVEL    3               1            
           L  100.000000E-06  100.000000E-06 
           W  100.000000E-06  100.000000E-06 
         VTO    2.09328         0            
          KP     .35           10            
       GAMMA    0               0            
         PHI     .6              .6          
      LAMBDA    0               0            
          IS   10.000000E-15   10.000000E-15 
          JS    0               0            
          PB     .8              .8          
        PBSW     .8              .8          
          CJ    0               0            
        CJSW    0               0            
        CGSO    0               0            
        CGDO    0               0            
        CGBO    0               0            
         TOX  100.000000E-09    0            
          XJ    0               0            
       UCRIT   10.000000E+03   10.000000E+03 
        VMAX  220.000000E+03                 
       THETA     .086                        
      DIOMOD    1               1            
         VFB    0               0            
        LETA    0               0            
        WETA    0               0            
          U0    0               0            
        TEMP    0               0            
         VDD    5               5            
       XPART    0               0            


**** 03/02/20 16:18:43 ******* PSpice Lite (March 2016) ******* ID# 10813 ****

 ** Profile: "SCHEMATIC1-Sim Lab 3"  [ H:\ElectronicsLab\project\Lab 3\lab 3-pspicefiles\schematic1\sim lab 3.sim ] 


 ****     INITIAL TRANSIENT SOLUTION       TEMPERATURE =   27.000 DEG C


******************************************************************************



 NODE   VOLTAGE     NODE   VOLTAGE     NODE   VOLTAGE     NODE   VOLTAGE


(N15354)    6.0000 (N15693)    3.7563 (N15724)    6.0000 (X_M4.1)    6.0000     

(X_M4.2)    5.9974 (X_M4.3)    3.7563 (X_M4.4)    5.9989 (X_M4.5)    3.7563     

(X_M4.6)    5.9989 (X_M4.7)    6.0000 (X_M4.8)    5.9966 (X_M4.9)    6.0023 




    VOLTAGE SOURCE CURRENTS
    NAME         CURRENT

    V_V1        -3.756E-03
    V_V2        -1.127E-10

    TOTAL POWER DISSIPATION   2.25E-02  WATTS



          JOB CONCLUDED

**** 03/02/20 16:18:43 ******* PSpice Lite (March 2016) ******* ID# 10813 ****

 ** Profile: "SCHEMATIC1-Sim Lab 3"  [ H:\ElectronicsLab\project\Lab 3\lab 3-pspicefiles\schematic1\sim lab 3.sim ] 


 ****     JOB STATISTICS SUMMARY


******************************************************************************



  Total job time (using Solver 1)   =         .09
